 ****** HSPICE -- G-2012.06-SP1 32-BIT (Aug 27 2012) win32 ******               
  Copyright (C) 2012 Synopsys, Inc. All Rights Reserved.                        
  Unpublished-rights reserved under US copyright laws.
  This program is protected by law and is subject to the
  terms and conditions of the license agreement from Synopsys.
  Use of this program is your acceptance to be bound by the
  license agreement. HSPICE is the trademark of Synopsys, Inc.
  Input File: nand2.sp                                                          
  Command line options: -i nand2.sp -o nand2.lis
  lic:  
  lic: FLEXlm: v10.9.8 
  lic: USER:   Bangonkali           HOSTNAME: Blue 
  lic: HOSTID: "b8975a02aecc 005056c00001 005056c00008 08002700905e" PID:      3
 728 
  lic: Using FLEXlm license file: 
  lic: 27000@Blue 
  lic: Checkout 1 hspice 
  lic: License/Maintenance for hspice will expire on 31-dec-2019/2019.12 
  lic: NODE LOCKED license on hostid "b8975a02aecc 005056c00001 005056c00008 080
 02700905e" 
  lic:   
 Init: read install configuration file: c:\synopsys\Hspice_G-2012.06-SP1\meta.cfg
1****** HSPICE -- G-2012.06-SP1 32-BIT (Aug 27 2012) win32 ******               
 ******  
 nand 2 input

  ******  circuit name directory
 circuit number to circuit name directory
   number circuitname                     definition         multiplier
        0 main circuit
        1 xnand.                          nand               1.00 
  **info** (nand2.sp:17) DC voltage reset to initial transient source value              in source        0:va                  new dc=  0.0000D+00
 

  
      
 **info** set option symb=1 internally to help for convergence.
 *****************************************************************
 ******  option summary
 ******
 runlvl  = 3         bypass  = 2         
  Opening plot unit= 79
 file=nand2.pa0

1****** HSPICE -- G-2012.06-SP1 32-BIT (Aug 27 2012) win32 ******               
 ******  
 nand 2 input

  ******  operating point information tnom=  25.000 temp=  25.000 *****
 ***** operating point status is all       simulation time is     0.     
    node    =voltage      node    =voltage      node    =voltage

 +0:a       =   0.      0:b       =   1.8000  0:ndd     =   1.8000 
 +0:out     =   1.8000  1:ab      =  16.5824n


 **** voltage sources

 subckt                                   
 element  0:va       0:vb       0:vdd     
  volts      0.         1.8000     1.8000 
  current    0.         0.       -14.7760p
  power      0.         0.        26.5967p

     total voltage source power dissipation=   26.5967p       watts




 **** mosfets


 subckt   xnand      xnand      xnand      xnand     
 element  1:mn1      1:mn2      1:mp3      1:mp4     
 model    0:nch.16   0:nch.16   0:pch.12   0:pch.12  
 region       Linear     Cutoff     Linear     Cutoff
  id        12.9645p   11.1645p  -14.7759p   -1.0708a
  ibs     -4.298e-27 -1.459e-24  2.807e-27    0.     
  ibd     -1.451e-24  -11.8830f  4.912e-24  4.914e-24
  vgs        1.8000   -16.5824n   -1.8000     0.     
  vds       16.5824n    1.8000   -34.4977n  -34.4977n
  vbs        0.       -16.5824n    0.         0.     
  vth      526.6017m  521.5897m -511.5330m -511.5330m
  vdsat    478.4704m   45.1194m -721.5015m  -40.7739m
  vod        1.2734  -521.5897m   -1.2885   511.5330m
  beta       1.0262m    1.2322m  430.0166u  536.9099u
  gam eff  987.9204m  987.9204m  649.3861m  649.3861m
  gm         4.4056p  322.8207p    6.7004p   32.3882a
  gds      786.4717u    4.3692p  428.8056u   31.0392p
  gmb        2.4117p   97.0258p    4.2834p   12.5208a
  cdtot      1.2475f  471.6763a    4.0170f    1.7558f
  cgtot    738.6766a  417.3948a    2.1533f    1.1323f
  cstot      1.1371f  629.9625a    3.4736f    1.7558f
  cbtot      1.1661f    1.0001f    3.2739f    3.2400f
  cgs      341.5911a  129.7590a    1.1192f  350.9740a
  cgd      362.2818a  129.7410a    1.0549f  350.9601a




          ***** job concluded
1****** HSPICE -- G-2012.06-SP1 32-BIT (Aug 27 2012) win32 ******               
 ******  
 nand 2 input

  ******  job statistics summary tnom=  25.000 temp=  25.000 *****

  ******  HSPICE Threads Information  ******

  Command Line Threads Count :     1
  Available CPU Count        :     2
  Actual Threads Count       :     1


  ******  Circuit Statistics  ******
  # nodes       =      14 # elements   =       8
  # resistors   =       0 # capacitors =       1 # inductors   =       0
  # mutual_inds =       0 # vccs       =       0 # vcvs        =       0
  # cccs        =       0 # ccvs       =       0 # volt_srcs   =       3
  # curr_srcs   =       0 # diodes     =       0 # bjts        =       0
  # jfets       =       0 # mosfets    =       4 # U elements  =       0
  # T elements  =       0 # W elements =       0 # B elements  =       0
  # S elements  =       0 # P elements =       0 # va device   =       0
  # vector_srcs =       0 # N elements =       0


  ******  Runtime Statistics (seconds)  ******

  analysis           time    # points   tot. iter  conv.iter
  op point           0.01           1           4
  transient          0.32    16000001         631         251 rev=        54
  readin             0.13
  errchk             0.01
  setup              0.02
  output             0.00


           peak memory used         56.11 megabytes
           total cpu time            0.51 seconds
           total elapsed time        8.06 seconds
           job started at     07:34:15 02/11/2013
           job ended   at     07:34:23 02/11/2013


  lic: Release hspice token(s) 
 lic: total license checkout elapse time:        7.54(s)
