 ****** HSPICE -- G-2012.06-SP1 64-BIT (Aug 27 2012) win64 ******               
  Copyright (C) 2012 Synopsys, Inc. All Rights Reserved.                        
  Unpublished-rights reserved under US copyright laws.
  This program is protected by law and is subject to the
  terms and conditions of the license agreement from Synopsys.
  Use of this program is your acceptance to be bound by the
  license agreement. HSPICE is the trademark of Synopsys, Inc.
  Input File: nplogic_tf.sp                                                     
  Command line options: -mt 4 -i nplogic_tf.sp -o nplogic_tf.lis
  lic:  
  lic: FLEXlm: v10.9.8 
  lic: USER:   Bangonkali           HOSTNAME: Mars 
  lic: HOSTID: "162f68e80067 742f68e6ba72 742f68e80067 5404a6a87145 005056c00001
  005056c00008 0800270
  lic: Using FLEXlm license file: 
  lic: 27000@Mars 
  lic: Checkout 1 hspice 
  lic: License/Maintenance for hspice will expire on 31-dec-2019/2019.12 
  lic: NODE LOCKED license on hostid "162f68e80067 742f68e6ba72 742f68e80067 540
 4a6a87145 005056c0000
  lic:   
 Init: read install configuration file: C:\synopsys\Hspice_G-2012.06-SP1\meta.cfg
1****** HSPICE -- G-2012.06-SP1 64-BIT (Aug 27 2012) win64 ******               
 ******  
 np logic simulation

  ******  circuit name directory
 circuit number to circuit name directory
   number circuitname                     definition         multiplier
        0 main circuit
        1 x_nplogic.                      nplogic            1.00 
        2 x_nplogic.x_clki.               inverter           1.00 
  **info** (nplogic_tf.sp:19) DC voltage reset to initial transient source value              in source        0:vclk                new dc=  0.1800D+01
 

  
      
 **info** set option symb=1 internally to help for convergence.
 *****************************************************************
 ******  option summary
 ******
 runlvl  = 3         bypass  = 2         
  Opening plot unit= 79
 file=nplogic_tf.pa0

1****** HSPICE -- G-2012.06-SP1 64-BIT (Aug 27 2012) win64 ******               
 ******  
 np logic simulation

  ******  operating point information tnom=  25.000 temp=  25.000 *****
 ***** operating point status is all       simulation time is     0.     
    node    =voltage      node    =voltage      node    =voltage

 +0:clk     =   1.8000  0:in_a    =   1.8000  0:in_b    =   1.8000 
 +0:in_f    =   1.8000  0:in_h    =   1.8000  0:in_y    =   1.8000 
 +0:ndd     =   1.8000  0:out     =  17.3445n 1:ab      =  20.8134n
 +1:clki    =  10.4067n 1:dout    =  10.4067n 1:dx      =  10.4067n
 +1:fg      =  13.8756n 1:g       =   1.8000  1:x       =  31.2201n
 +1:xy      =   1.8000 


 **** voltage sources

 subckt                                                                    
 element  0:vclk     0:vdd      0:vin_a    0:vin_b    0:vin_f    0:vin_h   
  volts      1.8000     1.8000     1.8000     1.8000     1.8000     1.8000 
  current    0.       -39.1846p    0.         0.         0.         0.     
  power      0.        70.5323p    0.         0.         0.         0.     

 subckt             
 element  0:vin_y   
  volts      1.8000 
  current    0.     
  power      0.     

     total voltage source power dissipation=   70.5323p       watts




 **** mosfets


 subckt   x_nplogic  x_nplogic  x_nplogic  x_nplogic  x_nplogic  x_nplogic 
 element  1:mp1      1:mn1      1:mn2      1:mn3      1:mp2      1:mp5     
 model    0:pch.12   0:nch.16   0:nch.16   0:nch.16   0:pch.12   0:pch.12  
 region       Cutoff     Linear     Linear     Linear     Linear     Linear
  id        -4.5361p    8.1362p    8.1362p    8.1362p  -14.7758p  -14.7762p
  ibs      1.204e-27 -1.829e-24 -9.159e-25 -2.697e-27  2.807e-27  4.917e-24
  ibd      142.0490a -2.737e-24 -1.824e-24 -9.105e-25  4.912e-24  9.826e-24
  vgs        0.         1.8000     1.8000     1.8000    -1.8000    -1.8000 
  vds       -1.8000    10.4067n   10.4067n   10.4067n  -34.4975n  -34.4984n
  vbs        0.       -20.8134n  -10.4067n    0.         0.        34.4975n
  vth     -503.4316m  526.6017m  526.6017m  526.6017m -511.5330m -511.5330m
  vdsat    -40.7720m  478.4704m  478.4704m  478.4704m -721.5015m -721.5015m
  vod      503.4316m    1.2734     1.2734     1.2734    -1.2885    -1.2885 
  beta     537.9989u    1.0262m    1.0262m    1.0262m  430.0166u  430.0166u
  gam eff  649.3861m  987.9204m  987.9204m  987.9204m  649.3861m  649.3861m
  gm       126.1801p    2.7648p    2.7648p    2.7648p    6.7004p    6.7005p
  gds        3.6227p  786.4717u  786.4717u  786.4717u  428.8056u  428.8056u
  gmb       46.5941p    1.5135p    1.5135p    1.5135p    4.2834p    4.2835p
  cdtot      1.2600f    1.2475f    1.2475f    1.2475f    4.0170f    4.0170f
  cgtot      1.1323f  738.6766a  738.6766a  738.6766a    2.1533f    2.1533f
  cstot      1.7558f    1.1371f    1.1371f    1.1371f    3.4736f    3.4736f
  cbtot      2.7442f    1.1661f    1.1661f    1.1661f    3.2739f    3.2739f
  cgs      350.9745a  341.5911a  341.5911a  341.5911a    1.1192f    1.1192f
  cgd      350.9600a  362.2818a  362.2818a  362.2818a    1.0549f    1.0549f



 subckt   x_nplogic  x_nplogic  x_nplogic  x_nplogic  x_nplogic  x_nplogic 
 element  1:mp6      1:mn4      1:mp3      1:mn5      1:mn6      1:mn7     
 model    0:pch.12   0:nch.16   0:pch.12   0:nch.16   0:nch.16   0:nch.16  
 region       Cutoff     Cutoff     Cutoff     Linear     Linear     Linear
  id        -1.0708a   11.1645p   -4.5361p    2.7121p    2.7121p    5.4242p
  ibs      4.914e-24 -4.298e-27  1.204e-27 -1.218e-24 -9.141e-25 -9.150e-25
  ibd      9.829e-24  -11.8830f  142.0490a -1.521e-24 -1.217e-24 -1.520e-24
  vgs       34.4975n   10.4067n    0.         1.8000     1.8000     1.8000 
  vds      -34.4984n    1.8000    -1.8000     3.4689n    3.4689n    6.9378n
  vbs       34.4975n    0.         0.       -13.8756n  -10.4067n  -10.4067n
  vth     -511.5330m  521.5897m -503.4316m  526.6017m  526.6017m  526.6017m
  vdsat    -40.7739m   45.1194m  -40.7720m  478.4704m  478.4704m  478.4704m
  vod      511.5330m -521.5897m  503.4316m    1.2734     1.2734     1.2734 
  beta     536.9099u    1.2322m  537.9989u    1.0262m    1.0262m    1.0262m
  gam eff  649.3861m  987.9204m  649.3861m  987.9204m  987.9204m  987.9204m
  gm        32.3888a  322.8210p  126.1801p  921.6131f  921.6132f    1.8432p
  gds       31.0392p    4.3692p    3.6227p  786.4718u  786.4717u  786.4717u
  gmb       12.5211a   97.0259p   46.5941p  504.5082f  504.5082f    1.0090p
  cdtot      1.7558f  471.6763a    1.2600f    1.2475f    1.2475f    1.2475f
  cgtot      1.1323f  417.3948a    1.1323f  738.6766a  738.6766a  738.6766a
  cstot      1.7558f  629.9625a    1.7558f    1.1371f    1.1371f    1.1371f
  cbtot      3.2400f    1.0001f    2.7442f    1.1661f    1.1661f    1.1661f
  cgs      350.9740a  129.7590a  350.9745a  341.5911a  341.5911a  341.5911a
  cgd      350.9601a  129.7410a  350.9600a  362.2818a  362.2818a  362.2818a



 subckt   x_nplogic  x_nplogic. x_nplogic.
 element  1:mn8      2:mn1      2:mp2     
 model    0:nch.16   0:nch.16   0:pch.12  
 region       Linear     Linear     Cutoff
  id         8.1362p    8.1362p   -4.5361p
  ibs     -2.697e-27 -2.697e-27  1.204e-27
  ibd     -9.105e-25 -9.105e-25  142.0490a
  vgs        1.8000     1.8000     0.     
  vds       10.4067n   10.4067n   -1.8000 
  vbs        0.         0.         0.     
  vth      526.6017m  526.6017m -503.4316m
  vdsat    478.4704m  478.4704m  -40.7720m
  vod        1.2734     1.2734   503.4316m
  beta       1.0262m    1.0262m  537.9989u
  gam eff  987.9204m  987.9204m  649.3861m
  gm         2.7648p    2.7648p  126.1801p
  gds      786.4717u  786.4717u    3.6227p
  gmb        1.5135p    1.5135p   46.5941p
  cdtot      1.2475f    1.2475f    1.2600f
  cgtot    738.6766a  738.6766a    1.1323f
  cstot      1.1371f    1.1371f    1.7558f
  cbtot      1.1661f    1.1661f    2.7442f
  cgs      341.5911a  341.5911a  350.9745a
  cgd      362.2818a  362.2818a  350.9600a




          ***** job concluded
1****** HSPICE -- G-2012.06-SP1 64-BIT (Aug 27 2012) win64 ******               
 ******  
 np logic simulation

  ******  job statistics summary tnom=  25.000 temp=  25.000 *****

  ******  HSPICE Threads Information  ******

  Command Line Threads Count :     4
  Available CPU Count        :     4
  Actual Threads Count       :     1


  ******  Circuit Statistics  ******
  # nodes       =      47 # elements   =      25
  # resistors   =       0 # capacitors =       3 # inductors   =       0
  # mutual_inds =       0 # vccs       =       0 # vcvs        =       0
  # cccs        =       0 # ccvs       =       0 # volt_srcs   =       7
  # curr_srcs   =       0 # diodes     =       0 # bjts        =       0
  # jfets       =       0 # mosfets    =      15 # U elements  =       0
  # T elements  =       0 # W elements =       0 # B elements  =       0
  # S elements  =       0 # P elements =       0 # va device   =       0
  # vector_srcs =       0 # N elements =       0


  ******  Runtime Statistics (seconds)  ******

  analysis           time    # points   tot. iter  conv.iter
  op point           0.01           1           4
  transient          1.26      512001       13062        4670 rev=       652
  readin             0.18
  errchk             0.02
  setup              0.02
  output             0.00


           peak memory used         66.37 megabytes
           total cpu time            1.52 seconds
           total elapsed time       10.97 seconds
           job started at     17:43:41 02/16/2013
           job ended   at     17:43:52 02/16/2013


  lic: Release hspice token(s) 
 lic: total license checkout elapse time:        9.45(s)
