 ****** HSPICE -- G-2012.06-SP1 32-BIT (Aug 27 2012) win32 ******               
  Copyright (C) 2012 Synopsys, Inc. All Rights Reserved.                        
  Unpublished-rights reserved under US copyright laws.
  This program is protected by law and is subject to the
  terms and conditions of the license agreement from Synopsys.
  Use of this program is your acceptance to be bound by the
  license agreement. HSPICE is the trademark of Synopsys, Inc.
  Input File: nand3.sp                                                          
  Command line options: -i nand3.sp -o nand3.lis
  lic:  
  lic: FLEXlm: v10.9.8 
  lic: USER:   Bangonkali           HOSTNAME: Blue 
  lic: HOSTID: "b8975a02aecc 005056c00001 005056c00008 08002700905e" PID:      2
 072 
  lic: Using FLEXlm license file: 
  lic: 27000@Blue 
  lic: Checkout 1 hspice 
  lic: License/Maintenance for hspice will expire on 31-dec-2019/2019.12 
  lic: NODE LOCKED license on hostid "b8975a02aecc 005056c00001 005056c00008 080
 02700905e" 
  lic:   
 Init: read install configuration file: c:\synopsys\Hspice_G-2012.06-SP1\meta.cfg
1****** HSPICE -- G-2012.06-SP1 32-BIT (Aug 27 2012) win32 ******               
 ******  
 nand 2 input

  ******  circuit name directory
 circuit number to circuit name directory
   number circuitname                     definition         multiplier
        0 main circuit
        1 xnand.                          nand               1.00 
  **info** (nand3.sp:17) DC voltage reset to initial transient source value              in source        0:va                  new dc=  0.1800D+01
 

  
      
 **info** set option symb=1 internally to help for convergence.
 *****************************************************************
 ******  option summary
 ******
 runlvl  = 3         bypass  = 2         
  Opening plot unit= 79
 file=nand3.pa0

1****** HSPICE -- G-2012.06-SP1 32-BIT (Aug 27 2012) win32 ******               
 ******  
 nand 2 input

  ******  operating point information tnom=  25.000 temp=  25.000 *****
 ***** operating point status is all       simulation time is     0.     
    node    =voltage      node    =voltage      node    =voltage

 +0:a       =   1.8000  0:b       =   1.8000  0:c       =   1.8000 
 +0:ndd     =   1.8000  0:out     = 461.1106n 1:ab      = 307.4071n
 +1:bc      = 153.7035n


 **** voltage sources

 subckt                                              
 element  0:va       0:vb       0:vc       0:vdd     
  volts      1.8000     1.8000     1.8000     1.8000 
  current    0.         0.         0.      -120.1634p
  power      0.         0.         0.       216.2941p

     total voltage source power dissipation=  216.2941p       watts




 **** mosfets


 subckt   xnand      xnand      xnand      xnand      xnand      xnand     
 element  1:mn1      1:mn2      1:mn3      1:mp1      1:mp2      1:mp3     
 model    0:nch.16   0:nch.16   0:nch.16   0:pch.8    0:pch.8    0:pch.8   
 region       Linear     Linear     Linear     Cutoff     Cutoff     Cutoff
  id       120.1694p  120.1694p  120.1694p  -36.4553p  -36.4553p  -36.4553p
  ibs     -2.701e-23 -1.353e-23 -3.984e-26  5.678e-27  5.678e-27  5.678e-27
  ibd     -4.042e-23 -2.693e-23 -1.345e-23    1.1200f    1.1200f    1.1200f
  vgs        1.8000     1.8000     1.8000     0.         0.         0.     
  vds      153.7036n  153.7035n  153.7035n   -1.8000    -1.8000    -1.8000 
  vbs     -307.4071n -153.7035n    0.         0.         0.         0.     
  vth      526.6018m  526.6017m  526.6017m -503.5615m -503.5615m -503.5615m
  vdsat    478.4703m  478.4703m  478.4704m  -41.8457m  -41.8457m  -41.8457m
  vod        1.2734     1.2734     1.2734   503.5615m  503.5615m  503.5615m
  beta       1.0262m    1.0262m    1.0262m    3.6562m    3.6562m    3.6562m
  gam eff  987.9204m  987.9204m  987.9204m  674.0550m  674.0550m  674.0550m
  gm        40.8357p   40.8357p   40.8357p  980.8605p  980.8605p  980.8605p
  gds      786.4713u  786.4714u  786.4714u   30.2554p   30.2554p   30.2554p
  gmb       22.3542p   22.3542p   22.3542p  352.9888p  352.9888p  352.9888p
  cdtot      1.2475f    1.2475f    1.2475f    6.9211f    6.9211f    6.9211f
  cgtot    738.6766a  738.6766a  738.6766a    6.7949f    6.7949f    6.7949f
  cstot      1.1371f    1.1371f    1.1371f    9.5674f    9.5674f    9.5674f
  cbtot      1.1661f    1.1661f    1.1661f   14.7947f   14.7947f   14.7947f
  cgs      341.5911a  341.5911a  341.5912a    2.1223f    2.1223f    2.1223f
  cgd      362.2818a  362.2818a  362.2818a    2.1222f    2.1222f    2.1222f




          ***** job concluded
1****** HSPICE -- G-2012.06-SP1 32-BIT (Aug 27 2012) win32 ******               
 ******  
 nand 2 input

  ******  job statistics summary tnom=  25.000 temp=  25.000 *****

  ******  HSPICE Threads Information  ******

  Command Line Threads Count :     1
  Available CPU Count        :     2
  Actual Threads Count       :     1


  ******  Circuit Statistics  ******
  # nodes       =      20 # elements   =      11
  # resistors   =       0 # capacitors =       1 # inductors   =       0
  # mutual_inds =       0 # vccs       =       0 # vcvs        =       0
  # cccs        =       0 # ccvs       =       0 # volt_srcs   =       4
  # curr_srcs   =       0 # diodes     =       0 # bjts        =       0
  # jfets       =       0 # mosfets    =       6 # U elements  =       0
  # T elements  =       0 # W elements =       0 # B elements  =       0
  # S elements  =       0 # P elements =       0 # va device   =       0
  # vector_srcs =       0 # N elements =       0


  ******  Runtime Statistics (seconds)  ******

  analysis           time    # points   tot. iter  conv.iter
  op point           0.07           1           4
  transient          0.44    20000001         686         276 rev=        61
  readin             0.26
  errchk             0.02
  setup              0.03
  output             0.00


           peak memory used         54.13 megabytes
           total cpu time            1.00 seconds
           total elapsed time        9.48 seconds
           job started at     10:09:34 02/11/2013
           job ended   at     10:09:44 02/11/2013


1****** HSPICE -- G-2012.06-SP1 32-BIT (Aug 27 2012) win32 ******               
 ******  
 nand 2 input

  ******  circuit name directory
 circuit number to circuit name directory
   number circuitname                     definition         multiplier
        0 main circuit
        1 xnand.                          nand               1.00 
  **info** (nand3.sp:17) DC voltage reset to initial transient source value              in source        0:va                  new dc=  0.1800D+01
  
      
 **info** set option symb=1 internally to help for convergence.
 *****************************************************************
 ******  option summary
 ******
 runlvl  = 3         bypass  = 2         
  Opening plot unit= 79
 file=nand3.pa1

1****** HSPICE -- G-2012.06-SP1 32-BIT (Aug 27 2012) win32 ******               
 ******  
 nand 2 input

  ******  operating point information tnom=  25.000 temp=  25.000 *****
 ***** operating point status is all       simulation time is     0.     
    node    =voltage      node    =voltage      node    =voltage

 +0:a       =   1.8000  0:b       =   1.8000  0:c       =   1.8000 
 +0:dd      = 461.1025n 0:ndd     =   1.8000  0:out     = 461.1106n
 +1:ab      = 307.4071n 1:bc      = 153.7035n


 **** voltage sources

 subckt                                              
 element  0:va       0:vb       0:vc       0:vdd     
  volts      1.8000     1.8000     1.8000     1.8000 
  current    0.         0.         0.      -120.1651p
  power      0.         0.         0.       216.2971p

     total voltage source power dissipation=  216.2971p       watts




 **** mosfets


 subckt                                    xnand      xnand      xnand     
 element  0:mp1      0:mp2      0:mp3      1:mn1      1:mn2      1:mn3     
 model    0:pch.12   0:pch.12   0:pch.12   0:nch.16   0:nch.16   0:nch.16  
 region       Cutoff     Cutoff     Cutoff     Linear     Linear     Linear
  id         0.         0.         0.       120.1694p  120.1694p  120.1694p
  ibs        0.         0.         0.      -2.701e-23 -1.353e-23 -3.984e-26
  ibd     -1.161e-27 -1.161e-27 -1.161e-27 -4.042e-23 -2.693e-23 -1.345e-23
  vgs        1.8000     1.8000     1.8000     1.8000     1.8000     1.8000 
  vds        8.1479p    8.1479p    8.1479p  153.7036n  153.7035n  153.7035n
  vbs        0.         0.         0.      -307.4071n -153.7035n    0.     
  vth     -511.5330m -511.5330m -511.5330m  526.6018m  526.6017m  526.6017m
  vdsat    -40.7738m  -40.7738m  -40.7738m  478.4703m  478.4703m  478.4704m
  vod        2.3115     2.3115     2.3115     1.2734     1.2734     1.2734 
  beta     536.9099u  536.9099u  536.9099u    1.0262m    1.0262m    1.0262m
  gam eff  649.3861m  649.3861m  649.3861m  987.9204m  987.9204m  987.9204m
  gm         0.         0.         0.        40.8357p   40.8357p   40.8357p
  gds        0.         0.         0.       786.4713u  786.4714u  786.4714u
  gmb        0.         0.         0.        22.3542p   22.3542p   22.3542p
  cdtot      1.7558f    1.7558f    1.7558f    1.2475f    1.2475f    1.2475f
  cgtot      2.2295f    2.2295f    2.2295f  738.6766a  738.6766a  738.6766a
  cstot      1.7558f    1.7558f    1.7558f    1.1371f    1.1371f    1.1371f
  cbtot      4.3372f    4.3372f    4.3372f    1.1661f    1.1661f    1.1661f
  cgs      350.9600a  350.9600a  350.9600a  341.5911a  341.5911a  341.5912a
  cgd      351.0104a  351.0104a  351.0104a  362.2818a  362.2818a  362.2818a



 subckt   xnand      xnand      xnand     
 element  1:mp1      1:mp2      1:mp3     
 model    0:pch.8    0:pch.8    0:pch.8   
 region       Cutoff     Cutoff     Cutoff
  id       -36.4553p  -36.4553p  -36.4553p
  ibs      5.678e-27  5.678e-27  5.678e-27
  ibd        1.1200f    1.1200f    1.1200f
  vgs        0.         0.         0.     
  vds       -1.8000    -1.8000    -1.8000 
  vbs        0.         0.         0.     
  vth     -503.5615m -503.5615m -503.5615m
  vdsat    -41.8457m  -41.8457m  -41.8457m
  vod      503.5615m  503.5615m  503.5615m
  beta       3.6562m    3.6562m    3.6562m
  gam eff  674.0550m  674.0550m  674.0550m
  gm       980.8605p  980.8605p  980.8605p
  gds       30.2554p   30.2554p   30.2554p
  gmb      352.9888p  352.9888p  352.9888p
  cdtot      6.9211f    6.9211f    6.9211f
  cgtot      6.7949f    6.7949f    6.7949f
  cstot      9.5674f    9.5674f    9.5674f
  cbtot     14.7947f   14.7947f   14.7947f
  cgs        2.1223f    2.1223f    2.1223f
  cgd        2.1222f    2.1222f    2.1222f




          ***** job concluded
1****** HSPICE -- G-2012.06-SP1 32-BIT (Aug 27 2012) win32 ******               
 ******  
 nand 2 input

  ******  job statistics summary tnom=  25.000 temp=  25.000 *****

  ******  HSPICE Threads Information  ******

  Command Line Threads Count :     1
  Available CPU Count        :     2
  Actual Threads Count       :     1


  ******  Circuit Statistics  ******
  # nodes       =      27 # elements   =      14
  # resistors   =       0 # capacitors =       1 # inductors   =       0
  # mutual_inds =       0 # vccs       =       0 # vcvs        =       0
  # cccs        =       0 # ccvs       =       0 # volt_srcs   =       4
  # curr_srcs   =       0 # diodes     =       0 # bjts        =       0
  # jfets       =       0 # mosfets    =       9 # U elements  =       0
  # T elements  =       0 # W elements =       0 # B elements  =       0
  # S elements  =       0 # P elements =       0 # va device   =       0
  # vector_srcs =       0 # N elements =       0


  ******  Runtime Statistics (seconds)  ******

  analysis           time    # points   tot. iter  conv.iter
  op point           0.04           1           4
  transient          0.53    20000001         724         286 rev=        60
  readin             0.16
  errchk             0.02
  setup              0.02
  output             0.00


           peak memory used         54.13 megabytes
           total cpu time            0.80 seconds
           total elapsed time        0.82 seconds
           job started at     10:09:34 02/11/2013
           job ended   at     10:09:44 02/11/2013


  lic: Release hspice token(s) 
 lic: total license checkout elapse time:        8.48(s)
